            * r:\esim_simulations\gurubaran\flash_adc\flash_adc.cir
            Transient Analysis  Thu Mar 10 21:43:25  2022
--------------------------------------------------------------------------------
Index   time            ?               net-_r1-pad2_   net-_r2-pad2_   
--------------------------------------------------------------------------------
0	0.000000e+00	-1.39957e+01	4.374306e+00	3.748865e+00	
1	1.000000e-03	-1.39957e+01	4.374306e+00	3.748865e+00	
2	2.000000e-03	-1.39957e+01	4.374306e+00	3.748865e+00	
3	4.000000e-03	-1.39957e+01	4.374306e+00	3.748865e+00	
4	8.000000e-03	-1.39957e+01	4.374306e+00	3.748865e+00	
5	1.600000e-02	-1.39957e+01	4.374306e+00	3.748865e+00	
6	3.200000e-02	-1.39957e+01	4.374306e+00	3.748865e+00	
7	6.400000e-02	-1.39957e+01	4.374306e+00	3.748865e+00	
8	1.280000e-01	-1.39957e+01	4.374306e+00	3.748865e+00	
9	2.560000e-01	-1.39957e+01	4.374306e+00	3.748865e+00	
10	4.560000e-01	-1.39957e+01	4.374306e+00	3.748865e+00	
11	6.560000e-01	-1.39957e+01	4.374306e+00	3.748865e+00	
12	8.560000e-01	-1.39957e+01	4.374306e+00	3.748865e+00	
13	1.056000e+00	-1.39957e+01	4.374306e+00	3.748865e+00	
14	1.256000e+00	-1.39957e+01	4.374306e+00	3.748865e+00	
15	1.456000e+00	-1.39957e+01	4.374306e+00	3.748865e+00	
16	1.656000e+00	-1.39957e+01	4.374306e+00	3.748865e+00	
17	1.856000e+00	-1.39957e+01	4.374306e+00	3.748865e+00	
18	2.056000e+00	-1.39957e+01	4.374306e+00	3.748865e+00	
19	2.256000e+00	-1.39957e+01	4.374306e+00	3.748865e+00	
20	2.456000e+00	-1.39957e+01	4.374306e+00	3.748865e+00	
21	2.656000e+00	-1.39957e+01	4.374306e+00	3.748865e+00	
22	2.856000e+00	-1.39957e+01	4.374306e+00	3.748865e+00	
23	3.056000e+00	-1.39957e+01	4.374306e+00	3.748865e+00	
24	3.256000e+00	-1.39957e+01	4.374306e+00	3.748865e+00	
25	3.456000e+00	-1.39957e+01	4.374306e+00	3.748865e+00	
26	3.656000e+00	-1.39957e+01	4.374306e+00	3.748865e+00	
27	3.856000e+00	-1.39957e+01	4.374306e+00	3.748865e+00	
28	4.056000e+00	-1.39957e+01	4.374306e+00	3.748865e+00	
29	4.256000e+00	-1.39957e+01	4.374306e+00	3.748865e+00	
30	4.456000e+00	-1.39957e+01	4.374306e+00	3.748865e+00	
31	4.656000e+00	-1.39957e+01	4.374306e+00	3.748865e+00	
32	4.856000e+00	-1.39957e+01	4.374306e+00	3.748865e+00	
33	5.056000e+00	-1.39957e+01	4.374306e+00	3.748865e+00	
34	5.256000e+00	-1.39957e+01	4.374306e+00	3.748865e+00	
35	5.456000e+00	-1.39957e+01	4.374306e+00	3.748865e+00	
36	5.656000e+00	-1.39957e+01	4.374306e+00	3.748865e+00	
37	5.856000e+00	-1.39957e+01	4.374306e+00	3.748865e+00	
38	6.056000e+00	-1.39957e+01	4.374306e+00	3.748865e+00	
39	6.256000e+00	-1.39957e+01	4.374306e+00	3.748865e+00	
40	6.456000e+00	-1.39957e+01	4.374306e+00	3.748865e+00	
41	6.656000e+00	-1.39957e+01	4.374306e+00	3.748865e+00	
42	6.856000e+00	-1.39957e+01	4.374306e+00	3.748865e+00	
43	7.056000e+00	-1.39957e+01	4.374306e+00	3.748865e+00	
44	7.256000e+00	-1.39957e+01	4.374306e+00	3.748865e+00	
45	7.456000e+00	-1.39957e+01	4.374306e+00	3.748865e+00	
46	7.656000e+00	-1.39957e+01	4.374306e+00	3.748865e+00	
47	7.856000e+00	-1.39957e+01	4.374306e+00	3.748865e+00	
48	8.056000e+00	-1.39957e+01	4.374306e+00	3.748865e+00	
49	8.256000e+00	-1.39957e+01	4.374306e+00	3.748865e+00	
50	8.456000e+00	-1.39957e+01	4.374306e+00	3.748865e+00	
51	8.656000e+00	-1.39957e+01	4.374306e+00	3.748865e+00	
52	8.856000e+00	-1.39957e+01	4.374306e+00	3.748865e+00	
53	9.056000e+00	-1.39957e+01	4.374306e+00	3.748865e+00	
54	9.256000e+00	-1.39957e+01	4.374306e+00	3.748865e+00	

Index   time            ?               net-_r1-pad2_   net-_r2-pad2_   
--------------------------------------------------------------------------------
55	9.456000e+00	-1.39957e+01	4.374306e+00	3.748865e+00	
56	9.656000e+00	-1.39957e+01	4.374306e+00	3.748865e+00	
57	9.856000e+00	-1.39957e+01	4.374306e+00	3.748865e+00	
58	1.000000e+01	-1.39957e+01	4.374306e+00	3.748865e+00	

            * r:\esim_simulations\gurubaran\flash_adc\flash_adc.cir
            Transient Analysis  Thu Mar 10 21:43:25  2022
--------------------------------------------------------------------------------
Index   time            net-_r3-pad2_   net-_r4-pad2_   net-_r5-pad2_   
--------------------------------------------------------------------------------
0	0.000000e+00	3.123674e+00	2.498729e+00	1.874027e+00	
1	1.000000e-03	3.123674e+00	2.498729e+00	1.874027e+00	
2	2.000000e-03	3.123674e+00	2.498729e+00	1.874027e+00	
3	4.000000e-03	3.123674e+00	2.498729e+00	1.874027e+00	
4	8.000000e-03	3.123674e+00	2.498729e+00	1.874027e+00	
5	1.600000e-02	3.123674e+00	2.498729e+00	1.874027e+00	
6	3.200000e-02	3.123674e+00	2.498729e+00	1.874027e+00	
7	6.400000e-02	3.123674e+00	2.498729e+00	1.874027e+00	
8	1.280000e-01	3.123674e+00	2.498729e+00	1.874027e+00	
9	2.560000e-01	3.123674e+00	2.498729e+00	1.874027e+00	
10	4.560000e-01	3.123674e+00	2.498729e+00	1.874027e+00	
11	6.560000e-01	3.123674e+00	2.498729e+00	1.874027e+00	
12	8.560000e-01	3.123674e+00	2.498729e+00	1.874027e+00	
13	1.056000e+00	3.123674e+00	2.498729e+00	1.874027e+00	
14	1.256000e+00	3.123674e+00	2.498729e+00	1.874027e+00	
15	1.456000e+00	3.123674e+00	2.498729e+00	1.874027e+00	
16	1.656000e+00	3.123674e+00	2.498729e+00	1.874027e+00	
17	1.856000e+00	3.123674e+00	2.498729e+00	1.874027e+00	
18	2.056000e+00	3.123674e+00	2.498729e+00	1.874027e+00	
19	2.256000e+00	3.123674e+00	2.498729e+00	1.874027e+00	
20	2.456000e+00	3.123674e+00	2.498729e+00	1.874027e+00	
21	2.656000e+00	3.123674e+00	2.498729e+00	1.874027e+00	
22	2.856000e+00	3.123674e+00	2.498729e+00	1.874027e+00	
23	3.056000e+00	3.123674e+00	2.498729e+00	1.874027e+00	
24	3.256000e+00	3.123674e+00	2.498729e+00	1.874027e+00	
25	3.456000e+00	3.123674e+00	2.498729e+00	1.874027e+00	
26	3.656000e+00	3.123674e+00	2.498729e+00	1.874027e+00	
27	3.856000e+00	3.123674e+00	2.498729e+00	1.874027e+00	
28	4.056000e+00	3.123674e+00	2.498729e+00	1.874027e+00	
29	4.256000e+00	3.123674e+00	2.498729e+00	1.874027e+00	
30	4.456000e+00	3.123674e+00	2.498729e+00	1.874027e+00	
31	4.656000e+00	3.123674e+00	2.498729e+00	1.874027e+00	
32	4.856000e+00	3.123674e+00	2.498729e+00	1.874027e+00	
33	5.056000e+00	3.123674e+00	2.498729e+00	1.874027e+00	
34	5.256000e+00	3.123674e+00	2.498729e+00	1.874027e+00	
35	5.456000e+00	3.123674e+00	2.498729e+00	1.874027e+00	
36	5.656000e+00	3.123674e+00	2.498729e+00	1.874027e+00	
37	5.856000e+00	3.123674e+00	2.498729e+00	1.874027e+00	
38	6.056000e+00	3.123674e+00	2.498729e+00	1.874027e+00	
39	6.256000e+00	3.123674e+00	2.498729e+00	1.874027e+00	
40	6.456000e+00	3.123674e+00	2.498729e+00	1.874027e+00	
41	6.656000e+00	3.123674e+00	2.498729e+00	1.874027e+00	
42	6.856000e+00	3.123674e+00	2.498729e+00	1.874027e+00	
43	7.056000e+00	3.123674e+00	2.498729e+00	1.874027e+00	
44	7.256000e+00	3.123674e+00	2.498729e+00	1.874027e+00	
45	7.456000e+00	3.123674e+00	2.498729e+00	1.874027e+00	
46	7.656000e+00	3.123674e+00	2.498729e+00	1.874027e+00	
47	7.856000e+00	3.123674e+00	2.498729e+00	1.874027e+00	
48	8.056000e+00	3.123674e+00	2.498729e+00	1.874027e+00	
49	8.256000e+00	3.123674e+00	2.498729e+00	1.874027e+00	
50	8.456000e+00	3.123674e+00	2.498729e+00	1.874027e+00	
51	8.656000e+00	3.123674e+00	2.498729e+00	1.874027e+00	
52	8.856000e+00	3.123674e+00	2.498729e+00	1.874027e+00	
53	9.056000e+00	3.123674e+00	2.498729e+00	1.874027e+00	
54	9.256000e+00	3.123674e+00	2.498729e+00	1.874027e+00	

Index   time            net-_r3-pad2_   net-_r4-pad2_   net-_r5-pad2_   
--------------------------------------------------------------------------------
55	9.456000e+00	3.123674e+00	2.498729e+00	1.874027e+00	
56	9.656000e+00	3.123674e+00	2.498729e+00	1.874027e+00	
57	9.856000e+00	3.123674e+00	2.498729e+00	1.874027e+00	
58	1.000000e+01	3.123674e+00	2.498729e+00	1.874027e+00	

            * r:\esim_simulations\gurubaran\flash_adc\flash_adc.cir
            Transient Analysis  Thu Mar 10 21:43:25  2022
--------------------------------------------------------------------------------
Index   time            net-_r6-pad2_   net-_r7-pad2_   net-_u2-pad1_   
--------------------------------------------------------------------------------
0	0.000000e+00	1.249351e+00	6.246756e-01	-1.27698e+01	
1	1.000000e-03	1.249351e+00	6.246756e-01	-1.27698e+01	
2	2.000000e-03	1.249351e+00	6.246756e-01	-1.27698e+01	
3	4.000000e-03	1.249351e+00	6.246756e-01	-1.27698e+01	
4	8.000000e-03	1.249351e+00	6.246756e-01	-1.27698e+01	
5	1.600000e-02	1.249351e+00	6.246756e-01	-1.27698e+01	
6	3.200000e-02	1.249351e+00	6.246756e-01	-1.27698e+01	
7	6.400000e-02	1.249351e+00	6.246756e-01	-1.27698e+01	
8	1.280000e-01	1.249351e+00	6.246756e-01	-1.27698e+01	
9	2.560000e-01	1.249351e+00	6.246756e-01	-1.27698e+01	
10	4.560000e-01	1.249351e+00	6.246756e-01	-1.27698e+01	
11	6.560000e-01	1.249351e+00	6.246756e-01	-1.27698e+01	
12	8.560000e-01	1.249351e+00	6.246756e-01	-1.27698e+01	
13	1.056000e+00	1.249351e+00	6.246756e-01	-1.27698e+01	
14	1.256000e+00	1.249351e+00	6.246756e-01	-1.27698e+01	
15	1.456000e+00	1.249351e+00	6.246756e-01	-1.27698e+01	
16	1.656000e+00	1.249351e+00	6.246756e-01	-1.27698e+01	
17	1.856000e+00	1.249351e+00	6.246756e-01	-1.27698e+01	
18	2.056000e+00	1.249351e+00	6.246756e-01	-1.27698e+01	
19	2.256000e+00	1.249351e+00	6.246756e-01	-1.27698e+01	
20	2.456000e+00	1.249351e+00	6.246756e-01	-1.27698e+01	
21	2.656000e+00	1.249351e+00	6.246756e-01	-1.27698e+01	
22	2.856000e+00	1.249351e+00	6.246756e-01	-1.27698e+01	
23	3.056000e+00	1.249351e+00	6.246756e-01	-1.27698e+01	
24	3.256000e+00	1.249351e+00	6.246756e-01	-1.27698e+01	
25	3.456000e+00	1.249351e+00	6.246756e-01	-1.27698e+01	
26	3.656000e+00	1.249351e+00	6.246756e-01	-1.27698e+01	
27	3.856000e+00	1.249351e+00	6.246756e-01	-1.27698e+01	
28	4.056000e+00	1.249351e+00	6.246756e-01	-1.27698e+01	
29	4.256000e+00	1.249351e+00	6.246756e-01	-1.27698e+01	
30	4.456000e+00	1.249351e+00	6.246756e-01	-1.27698e+01	
31	4.656000e+00	1.249351e+00	6.246756e-01	-1.27698e+01	
32	4.856000e+00	1.249351e+00	6.246756e-01	-1.27698e+01	
33	5.056000e+00	1.249351e+00	6.246756e-01	-1.27698e+01	
34	5.256000e+00	1.249351e+00	6.246756e-01	-1.27698e+01	
35	5.456000e+00	1.249351e+00	6.246756e-01	-1.27698e+01	
36	5.656000e+00	1.249351e+00	6.246756e-01	-1.27698e+01	
37	5.856000e+00	1.249351e+00	6.246756e-01	-1.27698e+01	
38	6.056000e+00	1.249351e+00	6.246756e-01	-1.27698e+01	
39	6.256000e+00	1.249351e+00	6.246756e-01	-1.27698e+01	
40	6.456000e+00	1.249351e+00	6.246756e-01	-1.27698e+01	
41	6.656000e+00	1.249351e+00	6.246756e-01	-1.27698e+01	
42	6.856000e+00	1.249351e+00	6.246756e-01	-1.27698e+01	
43	7.056000e+00	1.249351e+00	6.246756e-01	-1.27698e+01	
44	7.256000e+00	1.249351e+00	6.246756e-01	-1.27698e+01	
45	7.456000e+00	1.249351e+00	6.246756e-01	-1.27698e+01	
46	7.656000e+00	1.249351e+00	6.246756e-01	-1.27698e+01	
47	7.856000e+00	1.249351e+00	6.246756e-01	-1.27698e+01	
48	8.056000e+00	1.249351e+00	6.246756e-01	-1.27698e+01	
49	8.256000e+00	1.249351e+00	6.246756e-01	-1.27698e+01	
50	8.456000e+00	1.249351e+00	6.246756e-01	-1.27698e+01	
51	8.656000e+00	1.249351e+00	6.246756e-01	-1.27698e+01	
52	8.856000e+00	1.249351e+00	6.246756e-01	-1.27698e+01	
53	9.056000e+00	1.249351e+00	6.246756e-01	-1.27698e+01	
54	9.256000e+00	1.249351e+00	6.246756e-01	-1.27698e+01	

Index   time            net-_r6-pad2_   net-_r7-pad2_   net-_u2-pad1_   
--------------------------------------------------------------------------------
55	9.456000e+00	1.249351e+00	6.246756e-01	-1.27698e+01	
56	9.656000e+00	1.249351e+00	6.246756e-01	-1.27698e+01	
57	9.856000e+00	1.249351e+00	6.246756e-01	-1.27698e+01	
58	1.000000e+01	1.249351e+00	6.246756e-01	-1.27698e+01	

            * r:\esim_simulations\gurubaran\flash_adc\flash_adc.cir
            Transient Analysis  Thu Mar 10 21:43:25  2022
--------------------------------------------------------------------------------
Index   time            net-_u2-pad2_   net-_u2-pad3_   net-_u2-pad4_   
--------------------------------------------------------------------------------
0	0.000000e+00	-1.27698e+01	-1.27698e+01	-1.27697e+01	
1	1.000000e-03	-1.27698e+01	-1.27698e+01	-1.27697e+01	
2	2.000000e-03	-1.27698e+01	-1.27698e+01	-1.27697e+01	
3	4.000000e-03	-1.27698e+01	-1.27698e+01	-1.27697e+01	
4	8.000000e-03	-1.27698e+01	-1.27698e+01	-1.27697e+01	
5	1.600000e-02	-1.27698e+01	-1.27698e+01	-1.27697e+01	
6	3.200000e-02	-1.27698e+01	-1.27698e+01	-1.27697e+01	
7	6.400000e-02	-1.27698e+01	-1.27698e+01	-1.27697e+01	
8	1.280000e-01	-1.27698e+01	-1.27698e+01	-1.27697e+01	
9	2.560000e-01	-1.27698e+01	-1.27698e+01	-1.27697e+01	
10	4.560000e-01	-1.27698e+01	-1.27698e+01	-1.27697e+01	
11	6.560000e-01	-1.27698e+01	-1.27698e+01	-1.27697e+01	
12	8.560000e-01	-1.27698e+01	-1.27698e+01	-1.27697e+01	
13	1.056000e+00	-1.27698e+01	-1.27698e+01	-1.27697e+01	
14	1.256000e+00	-1.27698e+01	-1.27698e+01	-1.27697e+01	
15	1.456000e+00	-1.27698e+01	-1.27698e+01	-1.27697e+01	
16	1.656000e+00	-1.27698e+01	-1.27698e+01	-1.27697e+01	
17	1.856000e+00	-1.27698e+01	-1.27698e+01	-1.27697e+01	
18	2.056000e+00	-1.27698e+01	-1.27698e+01	-1.27697e+01	
19	2.256000e+00	-1.27698e+01	-1.27698e+01	-1.27697e+01	
20	2.456000e+00	-1.27698e+01	-1.27698e+01	-1.27697e+01	
21	2.656000e+00	-1.27698e+01	-1.27698e+01	-1.27697e+01	
22	2.856000e+00	-1.27698e+01	-1.27698e+01	-1.27697e+01	
23	3.056000e+00	-1.27698e+01	-1.27698e+01	-1.27697e+01	
24	3.256000e+00	-1.27698e+01	-1.27698e+01	-1.27697e+01	
25	3.456000e+00	-1.27698e+01	-1.27698e+01	-1.27697e+01	
26	3.656000e+00	-1.27698e+01	-1.27698e+01	-1.27697e+01	
27	3.856000e+00	-1.27698e+01	-1.27698e+01	-1.27697e+01	
28	4.056000e+00	-1.27698e+01	-1.27698e+01	-1.27697e+01	
29	4.256000e+00	-1.27698e+01	-1.27698e+01	-1.27697e+01	
30	4.456000e+00	-1.27698e+01	-1.27698e+01	-1.27697e+01	
31	4.656000e+00	-1.27698e+01	-1.27698e+01	-1.27697e+01	
32	4.856000e+00	-1.27698e+01	-1.27698e+01	-1.27697e+01	
33	5.056000e+00	-1.27698e+01	-1.27698e+01	-1.27697e+01	
34	5.256000e+00	-1.27698e+01	-1.27698e+01	-1.27697e+01	
35	5.456000e+00	-1.27698e+01	-1.27698e+01	-1.27697e+01	
36	5.656000e+00	-1.27698e+01	-1.27698e+01	-1.27697e+01	
37	5.856000e+00	-1.27698e+01	-1.27698e+01	-1.27697e+01	
38	6.056000e+00	-1.27698e+01	-1.27698e+01	-1.27697e+01	
39	6.256000e+00	-1.27698e+01	-1.27698e+01	-1.27697e+01	
40	6.456000e+00	-1.27698e+01	-1.27698e+01	-1.27697e+01	
41	6.656000e+00	-1.27698e+01	-1.27698e+01	-1.27697e+01	
42	6.856000e+00	-1.27698e+01	-1.27698e+01	-1.27697e+01	
43	7.056000e+00	-1.27698e+01	-1.27698e+01	-1.27697e+01	
44	7.256000e+00	-1.27698e+01	-1.27698e+01	-1.27697e+01	
45	7.456000e+00	-1.27698e+01	-1.27698e+01	-1.27697e+01	
46	7.656000e+00	-1.27698e+01	-1.27698e+01	-1.27697e+01	
47	7.856000e+00	-1.27698e+01	-1.27698e+01	-1.27697e+01	
48	8.056000e+00	-1.27698e+01	-1.27698e+01	-1.27697e+01	
49	8.256000e+00	-1.27698e+01	-1.27698e+01	-1.27697e+01	
50	8.456000e+00	-1.27698e+01	-1.27698e+01	-1.27697e+01	
51	8.656000e+00	-1.27698e+01	-1.27698e+01	-1.27697e+01	
52	8.856000e+00	-1.27698e+01	-1.27698e+01	-1.27697e+01	
53	9.056000e+00	-1.27698e+01	-1.27698e+01	-1.27697e+01	
54	9.256000e+00	-1.27698e+01	-1.27698e+01	-1.27697e+01	

Index   time            net-_u2-pad2_   net-_u2-pad3_   net-_u2-pad4_   
--------------------------------------------------------------------------------
55	9.456000e+00	-1.27698e+01	-1.27698e+01	-1.27697e+01	
56	9.656000e+00	-1.27698e+01	-1.27698e+01	-1.27697e+01	
57	9.856000e+00	-1.27698e+01	-1.27698e+01	-1.27697e+01	
58	1.000000e+01	-1.27698e+01	-1.27698e+01	-1.27697e+01	

            * r:\esim_simulations\gurubaran\flash_adc\flash_adc.cir
            Transient Analysis  Thu Mar 10 21:43:25  2022
--------------------------------------------------------------------------------
Index   time            net-_u2-pad5_   net-_u2-pad6_   net-_u2-pad7_   
--------------------------------------------------------------------------------
0	0.000000e+00	1.399295e+01	1.399296e+01	1.399296e+01	
1	1.000000e-03	1.399295e+01	1.399296e+01	1.399296e+01	
2	2.000000e-03	1.399295e+01	1.399296e+01	1.399296e+01	
3	4.000000e-03	1.399295e+01	1.399296e+01	1.399296e+01	
4	8.000000e-03	1.399295e+01	1.399296e+01	1.399296e+01	
5	1.600000e-02	1.399295e+01	1.399296e+01	1.399296e+01	
6	3.200000e-02	1.399295e+01	1.399296e+01	1.399296e+01	
7	6.400000e-02	1.399296e+01	1.399296e+01	1.399296e+01	
8	1.280000e-01	1.399296e+01	1.399297e+01	1.399297e+01	
9	2.560000e-01	1.399297e+01	1.399298e+01	1.399298e+01	
10	4.560000e-01	1.399297e+01	1.399298e+01	1.399298e+01	
11	6.560000e-01	1.399297e+01	1.399297e+01	1.399297e+01	
12	8.560000e-01	1.399297e+01	1.399297e+01	1.399297e+01	
13	1.056000e+00	1.399297e+01	1.399297e+01	1.399297e+01	
14	1.256000e+00	1.399298e+01	1.399297e+01	1.399298e+01	
15	1.456000e+00	1.399298e+01	1.399296e+01	1.399298e+01	
16	1.656000e+00	1.399298e+01	1.399297e+01	1.399297e+01	
17	1.856000e+00	1.399298e+01	1.399298e+01	1.399297e+01	
18	2.056000e+00	1.399298e+01	1.399297e+01	1.399297e+01	
19	2.256000e+00	1.399298e+01	1.399298e+01	1.399297e+01	
20	2.456000e+00	1.399297e+01	1.399299e+01	1.399297e+01	
21	2.656000e+00	1.399298e+01	1.399299e+01	1.399297e+01	
22	2.856000e+00	1.399298e+01	1.399298e+01	1.399298e+01	
23	3.056000e+00	1.399297e+01	1.399297e+01	1.399298e+01	
24	3.256000e+00	1.399297e+01	1.399297e+01	1.399297e+01	
25	3.456000e+00	1.399297e+01	1.399298e+01	1.399296e+01	
26	3.656000e+00	1.399297e+01	1.399298e+01	1.399296e+01	
27	3.856000e+00	1.399296e+01	1.399297e+01	1.399297e+01	
28	4.056000e+00	1.399297e+01	1.399297e+01	1.399298e+01	
29	4.256000e+00	1.399297e+01	1.399297e+01	1.399298e+01	
30	4.456000e+00	1.399297e+01	1.399298e+01	1.399298e+01	
31	4.656000e+00	1.399296e+01	1.399298e+01	1.399298e+01	
32	4.856000e+00	1.399296e+01	1.399298e+01	1.399298e+01	
33	5.056000e+00	1.399296e+01	1.399298e+01	1.399298e+01	
34	5.256000e+00	1.399296e+01	1.399297e+01	1.399298e+01	
35	5.456000e+00	1.399296e+01	1.399296e+01	1.399298e+01	
36	5.656000e+00	1.399298e+01	1.399297e+01	1.399297e+01	
37	5.856000e+00	1.399298e+01	1.399298e+01	1.399297e+01	
38	6.056000e+00	1.399298e+01	1.399299e+01	1.399298e+01	
39	6.256000e+00	1.399298e+01	1.399298e+01	1.399298e+01	
40	6.456000e+00	1.399298e+01	1.399297e+01	1.399297e+01	
41	6.656000e+00	1.399298e+01	1.399297e+01	1.399297e+01	
42	6.856000e+00	1.399297e+01	1.399297e+01	1.399297e+01	
43	7.056000e+00	1.399298e+01	1.399298e+01	1.399298e+01	
44	7.256000e+00	1.399299e+01	1.399298e+01	1.399298e+01	
45	7.456000e+00	1.399298e+01	1.399297e+01	1.399297e+01	
46	7.656000e+00	1.399297e+01	1.399297e+01	1.399297e+01	
47	7.856000e+00	1.399297e+01	1.399297e+01	1.399298e+01	
48	8.056000e+00	1.399297e+01	1.399297e+01	1.399298e+01	
49	8.256000e+00	1.399298e+01	1.399297e+01	1.399298e+01	
50	8.456000e+00	1.399297e+01	1.399297e+01	1.399298e+01	
51	8.656000e+00	1.399298e+01	1.399297e+01	1.399299e+01	
52	8.856000e+00	1.399298e+01	1.399297e+01	1.399298e+01	
53	9.056000e+00	1.399297e+01	1.399297e+01	1.399298e+01	
54	9.256000e+00	1.399297e+01	1.399297e+01	1.399297e+01	

Index   time            net-_u2-pad5_   net-_u2-pad6_   net-_u2-pad7_   
--------------------------------------------------------------------------------
55	9.456000e+00	1.399297e+01	1.399297e+01	1.399296e+01	
56	9.656000e+00	1.399297e+01	1.399297e+01	1.399295e+01	
57	9.856000e+00	1.399297e+01	1.399297e+01	1.399296e+01	
58	1.000000e+01	1.399297e+01	1.399297e+01	1.399296e+01	

            * r:\esim_simulations\gurubaran\flash_adc\flash_adc.cir
            Transient Analysis  Thu Mar 10 21:43:25  2022
--------------------------------------------------------------------------------
Index   time            out0            out1            out2            
--------------------------------------------------------------------------------
0	0.000000e+00	5.000000e+00	5.000000e+00	0.000000e+00	
1	1.000000e-03	5.000000e+00	5.000000e+00	0.000000e+00	
2	2.000000e-03	5.000000e+00	5.000000e+00	0.000000e+00	
3	4.000000e-03	5.000000e+00	5.000000e+00	0.000000e+00	
